***BUSMASTER Ver 3.2.2***
***PROTOCOL CAN***
***NOTE: PLEASE DO NOT EDIT THIS DOCUMENT***
***[START LOGGING SESSION]***
***START DATE AND TIME 24:2:2021 14:57:54:631***
***HEX***
***SYSTEM MODE***
***START CHANNEL BAUD RATE***
***CHANNEL 1 - Kvaser - Kvaser Leaf Light v2 #0 (Channel 0), Serial Number- 0, Firmware- 0x00000187 0x00040004 - 500000 bps***
***END CHANNEL BAUD RATE***
***START DATABASE FILES***
***C:\Users\rihar\Documents\Woodpecker\GIT\Woodpecker_CAN_protocol\Woodpecker_CAN.dbf***
***END DATABASE FILES***
***<Time><Tx/Rx><Channel><CAN ID><Type><DLC><DataBytes>***
14:57:54:6295 Rx 1 0x301 s 8 10 80 00 04 00 55 00 C1 
14:57:54:6395 Rx 1 0x301 s 8 10 80 00 04 00 55 00 C1 
14:57:54:6425 Rx 1 0x063 s 8 05 CC 00 00 00 59 1E 59 
14:57:54:6435 Rx 1 0x061 s 8 05 CC 00 00 00 06 E6 21 
14:57:54:6495 Rx 1 0x301 s 8 10 80 00 04 00 55 00 C1 
14:57:54:6595 Rx 1 0x063 s 8 05 CC 00 00 00 59 1E 59 
14:57:54:6595 Rx 1 0x301 s 8 10 80 00 04 00 55 00 C1 
14:57:54:6605 Rx 1 0x061 s 8 05 CC 00 00 00 06 E6 21 
14:57:54:6695 Rx 1 0x301 s 8 10 80 00 04 00 55 00 C1 
14:57:54:6755 Rx 1 0x063 s 8 05 CC 00 00 00 59 1E 59 
14:57:54:6765 Rx 1 0x061 s 8 05 CC 00 00 00 03 80 03 
14:57:54:6795 Rx 1 0x301 s 8 10 80 00 04 00 55 00 C1 
14:57:54:6895 Rx 1 0x301 s 8 10 80 00 04 00 55 00 C1 
14:57:54:6915 Rx 1 0x063 s 8 05 CC 00 00 00 59 1E 59 
14:57:54:6925 Rx 1 0x061 s 8 05 CC 00 00 00 03 80 03 
14:57:54:6995 Rx 1 0x301 s 8 10 80 00 04 00 55 00 C1 
14:57:54:7085 Rx 1 0x063 s 8 05 CC 00 00 00 59 1E 59 
14:57:54:7095 Rx 1 0x301 s 8 10 80 00 04 00 55 00 C1 
14:57:54:7095 Rx 1 0x061 s 8 05 CC 00 00 00 BF 03 80 
14:57:54:7195 Rx 1 0x301 s 8 10 80 00 04 00 55 00 C1 
14:57:54:7245 Rx 1 0x063 s 8 05 CC 00 00 00 59 1E 59 
14:57:54:7255 Rx 1 0x061 s 8 05 CC 00 00 00 00 06 96 
14:57:54:7295 Rx 1 0x301 s 8 10 80 00 04 00 55 00 C1 
14:57:54:7395 Rx 1 0x301 s 8 10 80 00 04 00 55 00 C1 
14:57:54:7405 Rx 1 0x063 s 8 05 CC 00 00 00 59 1E 59 
14:57:54:7425 Rx 1 0x061 s 8 05 CC 00 00 00 96 03 80 
14:57:54:7495 Rx 1 0x301 s 8 10 80 00 04 00 55 00 C1 
14:57:54:7575 Rx 1 0x063 s 8 05 CC 00 00 00 59 1E 59 
14:57:54:7585 Rx 1 0x061 s 8 05 CC 00 00 00 06 E6 21 
14:57:54:7595 Rx 1 0x301 s 8 10 80 00 04 00 55 00 C1 
14:57:54:7695 Rx 1 0x301 s 8 10 80 00 04 00 55 00 C1 
14:57:54:7735 Rx 1 0x063 s 8 05 CC 00 00 00 59 1E 59 
14:57:54:7745 Rx 1 0x061 s 8 05 CC 00 00 00 21 00 06 
14:57:54:7805 Rx 1 0x301 s 8 10 80 00 04 00 55 00 C1 
14:57:54:7905 Rx 1 0x063 s 8 05 CC 00 00 00 59 1E 59 
14:57:54:7905 Rx 1 0x301 s 8 10 80 00 04 00 55 00 C1 
14:57:54:7915 Rx 1 0x061 s 8 05 CC 00 00 00 06 E6 21 
14:57:54:8005 Rx 1 0x301 s 8 10 80 00 04 00 55 00 C1 
14:57:54:8065 Rx 1 0x063 s 8 05 CC 00 00 00 59 1E 59 
14:57:54:8075 Rx 1 0x061 s 8 05 CC 00 00 00 06 E6 21 
14:57:54:8105 Rx 1 0x301 s 8 10 80 00 04 00 55 00 C1 
14:57:54:8205 Rx 1 0x301 s 8 10 80 00 04 00 55 00 C1 
14:57:54:8225 Rx 1 0x063 s 8 05 CC 00 00 00 30 08 02 
14:57:54:8245 Rx 1 0x061 s 8 05 CC 00 00 00 06 E6 21 
14:57:54:8295 Rx 1 0x301 s 8 10 80 00 04 00 55 00 C1 
14:57:54:8395 Rx 1 0x063 s 8 05 CC 00 00 00 59 1E 59 
14:57:54:8395 Rx 1 0x301 s 8 10 80 00 04 00 55 00 C1 
14:57:54:8405 Rx 1 0x061 s 8 05 CC 00 00 00 03 80 00 
14:57:54:8495 Rx 1 0x301 s 8 10 80 00 04 00 55 00 C1 
14:57:54:8555 Rx 1 0x063 s 8 05 CC 00 00 00 07 7C 08 
14:57:54:8565 Rx 1 0x061 s 8 05 CC 00 00 00 03 80 03 
14:57:54:8595 Rx 1 0x301 s 8 10 80 00 04 00 55 00 C1 
14:57:54:8705 Rx 1 0x301 s 8 10 80 00 04 00 55 00 C1 
14:57:54:8715 Rx 1 0x063 s 8 05 CC 00 00 00 59 1E 59 
14:57:54:8735 Rx 1 0x061 s 8 05 CC 00 00 00 03 80 03 
14:57:54:8805 Rx 1 0x301 s 8 10 80 00 04 00 55 00 C1 
14:57:54:8885 Rx 1 0x063 s 8 05 CC 00 00 00 08 E9 00 
14:57:54:8895 Rx 1 0x061 s 8 05 CC 00 00 00 00 08 6C 
14:57:54:8905 Rx 1 0x301 s 8 10 80 00 04 00 55 00 C1 
14:57:54:9005 Rx 1 0x301 s 8 10 80 00 04 00 55 00 C1 
14:57:54:9045 Rx 1 0x063 s 8 05 CC 00 00 00 E7 E9 00 
14:57:54:9055 Rx 1 0x061 s 8 05 CC 00 00 00 BF 03 80 
14:57:54:9105 Rx 1 0x301 s 8 10 80 00 04 00 55 00 C1 
14:57:54:9205 Rx 1 0x301 s 8 10 80 00 04 00 55 00 C1 
14:57:54:9215 Rx 1 0x063 s 8 05 CC 00 00 00 59 1E 59 
14:57:54:9225 Rx 1 0x061 s 8 05 CC 00 00 00 06 E6 21 
14:57:54:9305 Rx 1 0x301 s 8 10 80 00 04 00 55 00 C1 
14:57:54:9375 Rx 1 0x063 s 8 05 CC 00 00 00 08 E9 00 
14:57:54:9385 Rx 1 0x061 s 8 05 CC 00 00 00 06 E6 21 
14:57:54:9405 Rx 1 0x301 s 8 10 80 00 04 00 55 00 C1 
14:57:54:9505 Rx 1 0x301 s 8 10 80 00 04 00 55 00 C1 
14:57:54:9535 Rx 1 0x063 s 8 05 CC 00 00 00 59 1E 59 
14:57:54:9555 Rx 1 0x061 s 8 05 CC 00 00 00 06 E6 21 
14:57:54:9605 Rx 1 0x301 s 8 10 80 00 04 00 55 00 C1 
14:57:54:9705 Rx 1 0x063 s 8 05 CC 00 00 00 07 7C 08 
14:57:54:9715 Rx 1 0x301 s 8 10 80 00 04 00 55 00 C1 
14:57:54:9715 Rx 1 0x061 s 8 05 CC 00 00 00 03 80 00 
14:57:54:9815 Rx 1 0x301 s 8 10 80 00 04 00 55 00 C1 
14:57:54:9865 Rx 1 0x063 s 8 05 CC 00 00 00 59 1E 59 
14:57:54:9885 Rx 1 0x061 s 8 05 CC 00 00 00 06 E6 21 
14:57:54:9915 Rx 1 0x301 s 8 10 80 00 04 00 55 00 C1 
14:57:55:0015 Rx 1 0x301 s 8 10 80 00 04 00 55 00 C1 
14:57:55:0025 Rx 1 0x063 s 8 05 CC 00 00 00 59 1E 59 
14:57:55:0045 Rx 1 0x061 s 8 05 CC 00 00 00 06 E6 21 
14:57:55:0115 Rx 1 0x301 s 8 10 80 00 04 00 55 00 C1 
14:57:55:0195 Rx 1 0x063 s 8 05 CC 00 00 00 59 1E 59 
14:57:55:0205 Rx 1 0x061 s 8 05 CC 00 00 00 06 E6 21 
14:57:55:0215 Rx 1 0x301 s 8 10 80 00 04 00 55 00 C1 
14:57:55:0315 Rx 1 0x301 s 8 10 80 00 04 00 55 00 C1 
14:57:55:0355 Rx 1 0x063 s 8 05 CC 00 00 00 59 1E 59 
14:57:55:0375 Rx 1 0x061 s 8 05 CC 00 00 00 06 E6 21 
14:57:55:0415 Rx 1 0x301 s 8 10 80 00 04 00 55 00 C1 
14:57:55:0515 Rx 1 0x301 s 8 10 80 00 04 00 55 00 C1 
14:57:55:0515 Rx 1 0x063 s 8 05 CC 00 00 00 59 1E 59 
14:57:55:0535 Rx 1 0x061 s 8 05 CC 00 00 00 06 E6 21 
14:57:55:0615 Rx 1 0x301 s 8 10 80 00 04 00 55 00 C1 
14:57:55:0685 Rx 1 0x063 s 8 05 CC 00 00 00 59 1E 59 
14:57:55:0705 Rx 1 0x061 s 8 05 CC 00 00 00 06 E6 21 
14:57:55:0715 Rx 1 0x301 s 8 10 80 00 04 00 55 00 C1 
14:57:55:0815 Rx 1 0x301 s 8 10 80 00 04 00 55 00 C1 
14:57:55:0845 Rx 1 0x063 s 8 05 CC 00 00 00 59 1E 59 
14:57:55:0865 Rx 1 0x061 s 8 05 CC 00 00 00 06 E6 21 
14:57:55:0915 Rx 1 0x301 s 8 10 80 00 04 00 55 00 C1 
14:57:55:1015 Rx 1 0x063 s 8 05 CC 00 00 00 59 1E 59 
14:57:55:1015 Rx 1 0x301 s 8 10 80 00 04 00 55 00 C1 
14:57:55:1025 Rx 1 0x061 s 8 05 CC 00 00 00 06 E6 21 
14:57:55:1115 Rx 1 0x301 s 8 10 80 00 04 00 55 00 C1 
14:57:55:1175 Rx 1 0x063 s 8 05 CC 00 00 00 59 1E 59 
14:57:55:1195 Rx 1 0x061 s 8 05 CC 00 00 00 06 E6 21 
14:57:55:1215 Rx 1 0x301 s 8 10 80 00 04 00 55 00 C1 
14:57:55:1325 Rx 1 0x301 s 8 10 80 00 04 00 55 00 C1 
14:57:55:1335 Rx 1 0x063 s 8 05 CC 00 00 00 59 1E 59 
14:57:55:1355 Rx 1 0x061 s 8 05 CC 00 00 00 06 E6 21 
14:57:55:1425 Rx 1 0x301 s 8 10 80 00 04 00 55 00 C1 
14:57:55:1505 Rx 1 0x063 s 8 05 CC 00 00 00 59 1E 59 
14:57:55:1515 Rx 1 0x301 s 8 10 80 00 04 00 55 00 C1 
14:57:55:1525 Rx 1 0x061 s 8 05 CC 00 00 00 06 E6 21 
14:57:55:1615 Rx 1 0x301 s 8 10 80 00 04 00 55 00 C1 
14:57:55:1665 Rx 1 0x063 s 8 05 CC 00 00 00 59 1E 59 
14:57:55:1685 Rx 1 0x061 s 8 05 CC 00 00 00 21 00 06 
14:57:55:1725 Rx 1 0x301 s 8 10 80 00 04 00 55 00 C1 
14:57:55:1825 Rx 1 0x301 s 8 10 80 00 04 00 55 00 C1 
14:57:55:1825 Rx 1 0x063 s 8 05 CC 00 00 00 59 1E 59 
14:57:55:1845 Rx 1 0x061 s 8 05 CC 00 00 00 00 08 6C 
14:57:55:1925 Rx 1 0x301 s 8 10 80 00 04 00 55 00 C1 
14:57:55:1995 Rx 1 0x063 s 8 05 CC 00 00 00 59 1E 59 
14:57:55:2005 Rx 1 0x061 s 8 05 CC 00 00 00 21 00 06 
14:57:55:2025 Rx 1 0x301 s 8 10 80 00 04 00 55 00 C1 
14:57:55:2125 Rx 1 0x301 s 8 10 80 00 04 00 55 00 C1 
14:57:55:2155 Rx 1 0x063 s 8 05 CC 00 00 00 59 1E 59 
14:57:55:2175 Rx 1 0x061 s 8 05 CC 00 00 00 06 E6 21 
14:57:55:2225 Rx 1 0x301 s 8 10 80 00 04 00 55 00 C1 
14:57:55:2325 Rx 1 0x063 s 8 05 CC 00 00 00 59 1E 59 
14:57:55:2325 Rx 1 0x301 s 8 10 80 00 04 00 55 00 C1 
14:57:55:2335 Rx 1 0x061 s 8 05 CC 00 00 00 06 E6 21 
14:57:55:2425 Rx 1 0x301 s 8 10 80 00 04 00 55 00 C1 
14:57:55:2485 Rx 1 0x063 s 8 05 CC 00 00 00 59 1E 59 
14:57:55:2505 Rx 1 0x061 s 8 05 CC 00 00 00 06 E6 21 
14:57:55:2525 Rx 1 0x301 s 8 10 80 00 04 00 55 00 C1 
14:57:55:2625 Rx 1 0x301 s 8 10 80 00 04 00 55 00 C1 
14:57:55:2645 Rx 1 0x063 s 8 05 CC 00 00 00 07 7C 08 
14:57:55:2665 Rx 1 0x061 s 8 05 CC 00 00 00 06 E6 21 
14:57:55:2725 Rx 1 0x301 s 8 10 80 00 04 00 55 00 C1 
14:57:55:2815 Rx 1 0x063 s 8 05 CC 00 00 00 59 1E 59 
14:57:55:2825 Rx 1 0x301 s 8 10 80 00 04 00 55 00 C1 
14:57:55:2825 Rx 1 0x061 s 8 05 CC 00 00 00 06 E6 21 
14:57:55:2925 Rx 1 0x301 s 8 10 80 00 04 00 55 00 C1 
14:57:55:2975 Rx 1 0x063 s 8 05 CC 00 00 00 59 1E 59 
14:57:55:2995 Rx 1 0x061 s 8 05 CC 00 00 00 03 80 03 
14:57:55:3025 Rx 1 0x301 s 8 10 80 00 04 00 55 00 C1 
14:57:55:3125 Rx 1 0x301 s 8 10 80 00 04 00 55 00 C1 
14:57:55:3135 Rx 1 0x063 s 8 05 CC 00 00 00 E9 00 00 
14:57:55:3155 Rx 1 0x061 s 8 05 CC 00 00 00 03 80 03 
14:57:55:3225 Rx 1 0x301 s 8 10 80 00 04 00 55 00 C1 
14:57:55:3305 Rx 1 0x063 s 8 05 CC 00 00 00 59 1E 59 
14:57:55:3325 Rx 1 0x061 s 8 05 CC 00 00 00 BF 03 80 
14:57:55:3325 Rx 1 0x301 s 8 10 80 00 04 00 55 00 C1 
14:57:55:3425 Rx 1 0x301 s 8 10 80 00 04 00 55 00 C1 
14:57:55:3465 Rx 1 0x063 s 8 05 CC 00 00 00 08 E9 00 
14:57:55:3485 Rx 1 0x061 s 8 05 CC 00 00 00 06 E6 21 
14:57:55:3525 Rx 1 0x301 s 8 10 80 00 04 00 55 00 C1 
14:57:55:3625 Rx 1 0x301 s 8 10 80 00 04 00 55 00 C1 
14:57:55:3635 Rx 1 0x063 s 8 05 CC 00 00 00 59 1E 59 
14:57:55:3645 Rx 1 0x061 s 8 05 CC 00 00 00 06 E6 21 
14:57:55:3725 Rx 1 0x301 s 8 10 80 00 04 00 55 00 C1 
14:57:55:3795 Rx 1 0x063 s 8 05 CC 00 00 00 59 1E 59 
14:57:55:3815 Rx 1 0x061 s 8 05 CC 00 00 00 06 E6 21 
14:57:55:3825 Rx 1 0x301 s 8 10 80 00 04 00 55 00 C1 
14:57:55:3925 Rx 1 0x301 s 8 10 80 00 04 00 55 00 C1 
14:57:55:3955 Rx 1 0x063 s 8 05 CC 00 00 00 59 1E 59 
14:57:55:3975 Rx 1 0x061 s 8 05 CC 00 00 00 06 E6 21 
14:57:55:4025 Rx 1 0x301 s 8 10 80 00 04 00 55 00 C1 
14:57:55:4125 Rx 1 0x063 s 8 05 CC 00 00 00 59 1E 59 
14:57:55:4125 Rx 1 0x301 s 8 10 80 00 04 00 55 00 C1 
14:57:55:4145 Rx 1 0x061 s 8 05 CC 00 00 00 06 E6 21 
14:57:55:4225 Rx 1 0x301 s 8 10 80 00 04 00 55 00 C1 
14:57:55:4285 Rx 1 0x063 s 8 05 CC 00 00 00 59 1E 59 
14:57:55:4305 Rx 1 0x061 s 8 05 CC 00 00 00 06 E6 21 
14:57:55:4325 Rx 1 0x301 s 8 10 80 00 04 00 55 00 C1 
14:57:55:4425 Rx 1 0x301 s 8 10 80 00 04 00 55 00 C1 
14:57:55:4445 Rx 1 0x063 s 8 05 CC 00 00 00 59 1E 59 
14:57:55:4465 Rx 1 0x061 s 8 05 CC 00 00 00 03 80 03 
14:57:55:4525 Rx 1 0x301 s 8 10 80 00 04 00 55 00 C1 
14:57:55:4615 Rx 1 0x063 s 8 05 CC 00 00 00 59 1E 59 
14:57:55:4635 Rx 1 0x301 s 8 10 80 00 04 00 55 00 C1 
14:57:55:4635 Rx 1 0x061 s 8 05 CC 00 00 00 BF 03 80 
14:57:55:4735 Rx 1 0x301 s 8 10 80 00 04 00 55 00 C1 
14:57:55:4775 Rx 1 0x063 s 8 05 CC 00 00 00 59 1E 59 
14:57:55:4795 Rx 1 0x061 s 8 05 CC 00 00 00 06 E6 21 
14:57:55:4835 Rx 1 0x301 s 8 10 80 00 04 00 55 00 C1 
14:57:55:4935 Rx 1 0x301 s 8 10 80 00 04 00 55 00 C1 
14:57:55:4935 Rx 1 0x063 s 8 05 CC 00 00 00 0B 1E 59 
14:57:55:4965 Rx 1 0x061 s 8 05 CC 00 00 00 06 E6 21 
14:57:55:5035 Rx 1 0x301 s 8 10 80 00 04 00 55 00 C1 
14:57:55:5105 Rx 1 0x063 s 8 05 CC 00 00 00 59 1E 59 
14:57:55:5125 Rx 1 0x061 s 8 05 CC 00 00 00 06 E6 21 
14:57:55:5135 Rx 1 0x301 s 8 10 80 00 04 00 55 00 C1 
14:57:55:5235 Rx 1 0x301 s 8 10 80 00 04 00 55 00 C1 
14:57:55:5265 Rx 1 0x063 s 8 05 CC 00 00 00 59 1E 59 
14:57:55:5285 Rx 1 0x061 s 8 05 CC 00 00 00 06 E6 21 
14:57:55:5335 Rx 1 0x301 s 8 10 80 00 04 00 55 00 C1 
14:57:55:5435 Rx 1 0x063 s 8 05 CC 00 00 00 59 1E 59 
14:57:55:5445 Rx 1 0x301 s 8 10 80 00 04 00 55 00 C1 
14:57:55:5455 Rx 1 0x061 s 8 05 CC 00 00 00 06 E6 21 
14:57:55:5545 Rx 1 0x301 s 8 10 80 00 04 00 55 00 C1 
14:57:55:5595 Rx 1 0x063 s 8 05 CC 00 00 00 59 1E 59 
14:57:55:5615 Rx 1 0x061 s 8 05 CC 00 00 00 03 80 03 
14:57:55:5645 Rx 1 0x301 s 8 10 80 00 04 00 55 00 C1 
14:57:55:5745 Rx 1 0x301 s 8 10 80 00 04 00 55 00 C1 
14:57:55:5755 Rx 1 0x063 s 8 05 CC 00 00 00 59 1E 59 
14:57:55:5775 Rx 1 0x061 s 8 05 CC 00 00 00 03 80 03 
14:57:55:5845 Rx 1 0x301 s 8 10 80 00 04 00 55 00 C1 
14:57:55:5925 Rx 1 0x063 s 8 05 CC 00 00 00 59 1E 59 
14:57:55:5945 Rx 1 0x301 s 8 10 80 00 04 00 55 00 C1 
14:57:55:5945 Rx 1 0x061 s 8 05 CC 00 00 00 21 00 06 
14:57:55:6045 Rx 1 0x301 s 8 10 80 00 04 00 55 00 C1 
14:57:55:6085 Rx 1 0x063 s 8 05 CC 00 00 00 59 1E 59 
14:57:55:6105 Rx 1 0x061 s 8 05 CC 00 00 00 06 E6 21 
14:57:55:6145 Rx 1 0x301 s 8 10 80 00 04 00 55 00 C1 
14:57:55:6245 Rx 1 0x301 s 8 10 80 00 04 00 55 00 C1 
14:57:55:6245 Rx 1 0x063 s 8 05 CC 00 00 00 59 1E 59 
14:57:55:6275 Rx 1 0x061 s 8 05 CC 00 00 00 06 E6 21 
14:57:55:6345 Rx 1 0x301 s 8 10 80 00 04 00 55 00 C1 
14:57:55:6415 Rx 1 0x063 s 8 05 CC 00 00 00 59 1E 59 
14:57:55:6435 Rx 1 0x061 s 8 05 CC 00 00 00 06 E6 21 
14:57:55:6445 Rx 1 0x301 s 8 10 80 00 04 00 55 00 C1 
14:57:55:6545 Rx 1 0x301 s 8 10 80 00 04 00 55 00 C1 
14:57:55:6575 Rx 1 0x063 s 8 05 CC 00 00 00 59 1E 59 
14:57:55:6595 Rx 1 0x061 s 8 05 CC 00 00 00 06 E6 21 
14:57:55:6645 Rx 1 0x301 s 8 10 80 00 04 00 55 00 C1 
14:57:55:6735 Rx 1 0x063 s 8 05 CC 00 00 00 59 1E 59 
14:57:55:6745 Rx 1 0x301 s 8 10 80 00 04 00 55 00 C1 
14:57:55:6765 Rx 1 0x061 s 8 05 CC 00 00 00 06 E6 21 
14:57:55:6845 Rx 1 0x301 s 8 10 80 00 04 00 55 00 C1 
14:57:55:6905 Rx 1 0x063 s 8 05 CC 00 00 00 0B 1E 59 
14:57:55:6925 Rx 1 0x061 s 8 05 CC 00 00 00 03 80 03 
14:57:55:6945 Rx 1 0x301 s 8 10 80 00 04 00 55 00 C1 
14:57:55:7045 Rx 1 0x301 s 8 10 80 00 04 00 55 00 C1 
14:57:55:7065 Rx 1 0x063 s 8 05 CC 00 00 00 59 02 30 
14:57:55:7095 Rx 1 0x061 s 8 05 CC 00 00 00 21 00 06 
14:57:55:7155 Rx 1 0x301 s 8 10 80 00 04 00 55 00 C1 
14:57:55:7235 Rx 1 0x063 s 8 05 CC 00 00 00 59 1E 59 
14:57:55:7255 Rx 1 0x301 s 8 10 80 00 04 00 55 00 C1 
14:57:55:7255 Rx 1 0x061 s 8 05 CC 00 00 00 BF 03 80 
14:57:55:7355 Rx 1 0x301 s 8 10 80 00 04 00 55 00 C1 
14:57:55:7395 Rx 1 0x063 s 8 05 CC 00 00 00 E9 00 00 
14:57:55:7415 Rx 1 0x061 s 8 05 CC 00 00 00 06 E6 21 
14:57:55:7455 Rx 1 0x301 s 8 10 80 00 04 00 55 00 C1 
14:57:55:7555 Rx 1 0x301 s 8 10 80 00 04 00 55 00 C1 
14:57:55:7555 Rx 1 0x063 s 8 05 CC 00 00 00 59 1E 59 
14:57:55:7585 Rx 1 0x061 s 8 05 CC 00 00 00 03 80 03 
14:57:55:7655 Rx 1 0x301 s 8 10 80 00 04 00 55 00 C1 
14:57:55:7725 Rx 1 0x063 s 8 05 CC 00 00 00 FE E7 E9 
14:57:55:7745 Rx 1 0x061 s 8 05 CC 00 00 00 96 03 80 
14:57:55:7755 Rx 1 0x301 s 8 10 80 00 04 00 55 00 C1 
14:57:55:7865 Rx 1 0x301 s 8 10 80 00 04 00 55 00 C1 
14:57:55:7885 Rx 1 0x063 s 8 05 CC 00 00 00 59 1E 59 
14:57:55:7915 Rx 1 0x061 s 8 05 CC 00 00 00 06 E6 21 
14:57:55:7965 Rx 1 0x301 s 8 10 80 00 04 00 55 00 C1 
14:57:55:8045 Rx 1 0x063 s 8 05 CC 00 00 00 08 E9 00 
14:57:55:8065 Rx 1 0x301 s 8 10 80 00 04 00 55 00 C1 
14:57:55:8075 Rx 1 0x061 s 8 05 CC 00 00 00 06 E6 21 
14:57:55:8165 Rx 1 0x301 s 8 10 80 00 04 00 55 00 C1 
14:57:55:8215 Rx 1 0x063 s 8 05 CC 00 00 00 59 1E 59 
14:57:55:8235 Rx 1 0x061 s 8 05 CC 00 00 00 06 E6 21 
14:57:55:8265 Rx 1 0x301 s 8 10 80 00 04 00 55 00 C1 
14:57:55:8365 Rx 1 0x301 s 8 10 80 00 04 00 55 00 C1 
14:57:55:8375 Rx 1 0x063 s 8 05 CC 00 00 00 59 1E 59 
14:57:55:8405 Rx 1 0x061 s 8 05 CC 00 00 00 06 E6 21 
14:57:55:8465 Rx 1 0x301 s 8 10 80 00 04 00 55 00 C1 
14:57:55:8545 Rx 1 0x063 s 8 05 CC 00 00 00 59 1E 59 
14:57:55:8565 Rx 1 0x301 s 8 10 80 00 04 00 55 00 C1 
14:57:55:8565 Rx 1 0x061 s 8 05 CC 00 00 00 06 E6 21 
14:57:55:8665 Rx 1 0x301 s 8 10 80 00 04 00 55 00 C1 
14:57:55:8705 Rx 1 0x063 s 8 05 CC 00 00 00 59 1E 59 
14:57:55:8725 Rx 1 0x061 s 8 05 CC 00 00 00 03 80 03 
14:57:55:8765 Rx 1 0x301 s 8 10 80 00 04 00 55 00 C1 
14:57:55:8865 Rx 1 0x063 s 8 05 CC 00 00 00 59 1E 59 
14:57:55:8865 Rx 1 0x301 s 8 10 80 00 04 00 55 00 C1 
14:57:55:8895 Rx 1 0x061 s 8 05 CC 00 00 00 03 80 00 
14:57:55:8965 Rx 1 0x301 s 8 10 80 00 04 00 55 00 C1 
14:57:55:9035 Rx 1 0x063 s 8 05 CC 00 00 00 59 1E 59 
14:57:55:9055 Rx 1 0x061 s 8 05 CC 00 00 00 21 00 06 
14:57:55:9065 Rx 1 0x301 s 8 10 80 00 04 00 55 00 C1 
14:57:55:9165 Rx 1 0x301 s 8 10 80 00 04 00 55 00 C1 
14:57:55:9195 Rx 1 0x063 s 8 05 CC 00 00 00 59 1E 59 
14:57:55:9225 Rx 1 0x061 s 8 05 CC 00 00 00 06 E6 21 
14:57:55:9265 Rx 1 0x301 s 8 10 80 00 04 00 55 00 C1 
14:57:55:9355 Rx 1 0x063 s 8 05 CC 00 00 00 59 1E 59 
14:57:55:9365 Rx 1 0x301 s 8 10 80 00 04 00 55 00 C1 
14:57:55:9385 Rx 1 0x061 s 8 05 CC 00 00 00 06 E6 21 
14:57:55:9465 Rx 1 0x301 s 8 10 80 00 04 00 55 00 C1 
14:57:55:9525 Rx 1 0x063 s 8 05 CC 00 00 00 59 1E 59 
14:57:55:9545 Rx 1 0x061 s 8 05 CC 00 00 00 06 E6 21 
14:57:55:9565 Rx 1 0x301 s 8 10 80 00 04 00 55 00 C1 
14:57:55:9665 Rx 1 0x301 s 8 10 80 00 04 00 55 00 C1 
14:57:55:9685 Rx 1 0x063 s 8 05 CC 00 00 00 59 1E 59 
14:57:55:9715 Rx 1 0x061 s 8 05 CC 00 00 00 06 E6 21 
14:57:55:9765 Rx 1 0x301 s 8 10 80 00 04 00 55 00 C1 
14:57:55:9855 Rx 1 0x063 s 8 05 CC 00 00 00 59 1E 59 
14:57:55:9865 Rx 1 0x301 s 8 10 80 00 04 00 55 00 C1 
14:57:55:9875 Rx 1 0x061 s 8 05 CC 00 00 00 06 E6 21 
14:57:55:9965 Rx 1 0x301 s 8 10 80 00 04 00 55 00 C1 
14:57:56:0015 Rx 1 0x063 s 8 05 CC 00 00 00 59 1E 59 
14:57:56:0045 Rx 1 0x061 s 8 05 CC 00 00 00 06 E6 21 
14:57:56:0075 Rx 1 0x301 s 8 10 80 00 04 00 55 00 C1 
14:57:56:0175 Rx 1 0x301 s 8 10 80 00 04 00 55 00 C1 
14:57:56:0175 Rx 1 0x063 s 8 05 CC 00 00 00 59 02 30 
14:57:56:0205 Rx 1 0x061 s 8 05 CC 00 00 00 06 E6 21 
14:57:56:0275 Rx 1 0x301 s 8 10 80 00 04 00 55 00 C1 
14:57:56:0345 Rx 1 0x063 s 8 05 CC 00 00 00 59 1E 59 
14:57:56:0365 Rx 1 0x061 s 8 05 CC 00 00 00 06 E6 21 
14:57:56:0375 Rx 1 0x301 s 8 10 80 00 04 00 55 00 C1 
14:57:56:0475 Rx 1 0x301 s 8 10 80 00 04 00 55 00 C1 
14:57:56:0505 Rx 1 0x063 s 8 05 CC 00 00 00 59 1E 59 
14:57:56:0535 Rx 1 0x061 s 8 05 CC 00 00 00 03 80 03 
14:57:56:0575 Rx 1 0x301 s 8 10 80 00 04 00 55 00 C1 
14:57:56:0665 Rx 1 0x063 s 8 05 CC 00 00 00 59 1E 59 
14:57:56:0675 Rx 1 0x301 s 8 10 80 00 04 00 55 00 C1 
14:57:56:0695 Rx 1 0x061 s 8 05 CC 00 00 00 00 06 96 
14:57:56:0775 Rx 1 0x301 s 8 10 80 00 04 00 55 00 C1 
14:57:56:0835 Rx 1 0x063 s 8 05 CC 00 00 00 59 1E 59 
14:57:56:0855 Rx 1 0x061 s 8 05 CC 00 00 00 00 08 6C 
14:57:56:0875 Rx 1 0x301 s 8 10 80 00 04 00 55 00 C1 
14:57:56:0975 Rx 1 0x301 s 8 10 80 00 04 00 55 00 C1 
14:57:56:0995 Rx 1 0x063 s 8 05 CC 00 00 00 59 1E 59 
14:57:56:1025 Rx 1 0x061 s 8 05 CC 00 00 00 00 08 6C 
14:57:56:1075 Rx 1 0x301 s 8 10 80 00 04 00 55 00 C1 
14:57:56:1155 Rx 1 0x063 s 8 05 CC 00 00 00 59 1E 59 
14:57:56:1175 Rx 1 0x301 s 8 10 80 00 04 00 55 00 C1 
14:57:56:1185 Rx 1 0x061 s 8 05 CC 00 00 00 21 00 06 
14:57:56:1275 Rx 1 0x301 s 8 10 80 00 04 00 55 00 C1 
14:57:56:1325 Rx 1 0x063 s 8 05 CC 00 00 00 59 1E 59 
14:57:56:1355 Rx 1 0x061 s 8 05 CC 00 00 00 06 E6 21 
14:57:56:1375 Rx 1 0x301 s 8 10 80 00 04 00 55 00 C1 
14:57:56:1475 Rx 1 0x301 s 8 10 80 00 04 00 55 00 C1 
14:57:56:1485 Rx 1 0x063 s 8 05 CC 00 00 00 E7 E9 00 
14:57:56:1515 Rx 1 0x061 s 8 05 CC 00 00 00 21 00 06 
14:57:56:1575 Rx 1 0x301 s 8 10 80 00 04 00 55 00 C1 
14:57:56:1645 Rx 1 0x063 s 8 05 CC 00 00 00 59 1E 59 
14:57:56:1675 Rx 1 0x301 s 8 10 80 00 04 00 55 00 C1 
14:57:56:1675 Rx 1 0x061 s 8 05 CC 00 00 00 06 E6 21 
14:57:56:1775 Rx 1 0x301 s 8 10 80 00 04 00 55 00 C1 
14:57:56:1815 Rx 1 0x063 s 8 05 CC 00 00 00 E7 E9 00 
14:57:56:1845 Rx 1 0x061 s 8 05 CC 00 00 00 06 E6 21 
14:57:56:1875 Rx 1 0x301 s 8 10 80 00 04 00 55 00 C1 
14:57:56:1975 Rx 1 0x063 s 8 05 CC 00 00 00 59 1E 59 
14:57:56:1985 Rx 1 0x301 s 8 10 80 00 04 00 55 00 C1 
14:57:56:2005 Rx 1 0x061 s 8 05 CC 00 00 00 06 E6 21 
14:57:56:2085 Rx 1 0x301 s 8 10 80 00 04 00 55 00 C1 
14:57:56:2145 Rx 1 0x063 s 8 05 CC 00 00 00 08 E9 00 
14:57:56:2175 Rx 1 0x061 s 8 05 CC 00 00 00 06 E6 21 
14:57:56:2185 Rx 1 0x301 s 8 10 80 00 04 00 55 00 C1 
14:57:56:2285 Rx 1 0x301 s 8 10 80 00 04 00 55 00 C1 
14:57:56:2305 Rx 1 0x063 s 8 05 CC 00 00 00 59 1E 59 
14:57:56:2335 Rx 1 0x061 s 8 05 CC 00 00 00 03 80 03 
14:57:56:2385 Rx 1 0x301 s 8 10 80 00 04 00 55 00 C1 
14:57:56:2465 Rx 1 0x063 s 8 05 CC 00 00 00 07 7C 08 
14:57:56:2485 Rx 1 0x301 s 8 10 80 00 04 00 55 00 C1 
14:57:56:2495 Rx 1 0x061 s 8 05 CC 00 00 00 03 80 03 
14:57:56:2585 Rx 1 0x301 s 8 10 80 00 04 00 55 00 C1 
14:57:56:2635 Rx 1 0x063 s 8 05 CC 00 00 00 59 1E 59 
14:57:56:2665 Rx 1 0x061 s 8 05 CC 00 00 00 00 06 E6 
14:57:56:2685 Rx 1 0x301 s 8 10 80 00 04 00 55 00 C1 
14:57:56:2785 Rx 1 0x301 s 8 10 80 00 04 00 55 00 C1 
14:57:56:2795 Rx 1 0x063 s 8 05 CC 00 00 00 59 1E 59 
14:57:56:2825 Rx 1 0x061 s 8 05 CC 00 00 00 96 03 80 
14:57:56:2885 Rx 1 0x301 s 8 10 80 00 04 00 55 00 C1 
14:57:56:2955 Rx 1 0x063 s 8 05 CC 00 00 00 E7 E9 00 
14:57:56:2985 Rx 1 0x301 s 8 10 80 00 04 00 55 00 C1 
14:57:56:2995 Rx 1 0x061 s 8 05 CC 00 00 00 AB 03 80 
14:57:56:3085 Rx 1 0x301 s 8 10 80 00 04 00 55 00 C1 
14:57:56:3125 Rx 1 0x063 s 8 05 CC 00 00 00 59 1E 59 
14:57:56:3155 Rx 1 0x061 s 8 05 CC 00 00 00 06 E6 21 
14:57:56:3185 Rx 1 0x301 s 8 10 80 00 04 00 55 00 C1 
14:57:56:3285 Rx 1 0x301 s 8 10 80 00 04 00 55 00 C1 
14:57:56:3285 Rx 1 0x063 s 8 05 CC 00 00 00 59 02 30 
14:57:56:3315 Rx 1 0x061 s 8 05 CC 00 00 00 21 00 06 
14:57:56:3385 Rx 1 0x301 s 8 10 80 00 04 00 55 00 C1 
14:57:56:3455 Rx 1 0x063 s 8 05 CC 00 00 00 59 1E 59 
14:57:56:3485 Rx 1 0x301 s 8 10 80 00 04 00 55 00 C1 
14:57:56:3485 Rx 1 0x061 s 8 05 CC 00 00 00 06 E6 21 
14:57:56:3585 Rx 1 0x301 s 8 10 80 00 04 00 55 00 C1 
14:57:56:3615 Rx 1 0x063 s 8 05 CC 00 00 00 59 1E 59 
14:57:56:3645 Rx 1 0x061 s 8 05 CC 00 00 00 BF 03 80 
14:57:56:3685 Rx 1 0x301 s 8 10 80 00 04 00 55 00 C1 
14:57:56:3775 Rx 1 0x063 s 8 05 CC 00 00 00 59 1E 59 
14:57:56:3785 Rx 1 0x301 s 8 10 80 00 04 00 55 00 C1 
14:57:56:3805 Rx 1 0x061 s 8 05 CC 00 00 00 06 E6 21 
14:57:56:3885 Rx 1 0x301 s 8 10 80 00 04 00 55 00 C1 
14:57:56:3945 Rx 1 0x063 s 8 05 CC 00 00 00 59 1E 59 
14:57:56:3975 Rx 1 0x061 s 8 05 CC 00 00 00 06 E6 21 
14:57:56:3985 Rx 1 0x301 s 8 10 80 00 04 00 55 00 C1 
14:57:56:4085 Rx 1 0x301 s 8 10 80 00 04 00 55 00 C1 
14:57:56:4105 Rx 1 0x063 s 8 05 CC 00 00 00 59 1E 59 
14:57:56:4135 Rx 1 0x061 s 8 05 CC 00 00 00 06 E6 21 
14:57:56:4185 Rx 1 0x301 s 8 10 80 00 04 00 55 00 C1 
14:57:56:4265 Rx 1 0x063 s 8 05 CC 00 00 00 59 1E 59 
14:57:56:4285 Rx 1 0x301 s 8 10 80 00 04 00 55 00 C1 
14:57:56:4305 Rx 1 0x061 s 8 05 CC 00 00 00 06 E6 21 
14:57:56:4385 Rx 1 0x301 s 8 10 80 00 04 00 55 00 C1 
14:57:56:4435 Rx 1 0x063 s 8 05 CC 00 00 00 59 1E 59 
14:57:56:4465 Rx 1 0x061 s 8 05 CC 00 00 00 06 E6 21 
14:57:56:4485 Rx 1 0x301 s 8 10 80 00 04 00 55 00 C1 
14:57:56:4585 Rx 1 0x301 s 8 10 80 00 04 00 55 00 C1 
14:57:56:4595 Rx 1 0x063 s 8 05 CC 00 00 00 59 1E 59 
14:57:56:4625 Rx 1 0x061 s 8 05 CC 00 00 00 03 80 03 
14:57:56:4685 Rx 1 0x301 s 8 10 80 00 04 00 55 00 C1 
14:57:56:4765 Rx 1 0x063 s 8 05 CC 00 00 00 59 1E 59 
14:57:56:4795 Rx 1 0x301 s 8 10 80 00 04 00 55 00 C1 
14:57:56:4795 Rx 1 0x061 s 8 05 CC 00 00 00 00 08 6C 
14:57:56:4885 Rx 1 0x301 s 8 10 80 00 04 00 55 00 C1 
14:57:56:4925 Rx 1 0x063 s 8 05 CC 00 00 00 59 1E 59 
14:57:56:4955 Rx 1 0x061 s 8 05 CC 00 00 00 21 00 06 
14:57:56:4985 Rx 1 0x301 s 8 10 80 00 04 00 55 00 C1 
14:57:56:5085 Rx 1 0x063 s 8 05 CC 00 00 00 59 1E 59 
14:57:56:5095 Rx 1 0x301 s 8 10 80 00 04 00 55 00 C1 
14:57:56:5125 Rx 1 0x061 s 8 05 CC 00 00 00 06 E6 21 
14:57:56:5195 Rx 1 0x301 s 8 10 80 00 04 00 55 00 C1 
14:57:56:5255 Rx 1 0x063 s 8 05 CC 00 00 00 59 1E 59 
14:57:56:5285 Rx 1 0x061 s 8 05 CC 00 00 00 06 E6 21 
14:57:56:5295 Rx 1 0x301 s 8 10 80 00 04 00 55 00 C1 
14:57:56:5395 Rx 1 0x301 s 8 10 80 00 04 00 55 00 C1 
14:57:56:5415 Rx 1 0x063 s 8 05 CC 00 00 00 59 1E 59 
14:57:56:5445 Rx 1 0x061 s 8 05 CC 00 00 00 06 E6 21 
14:57:56:5495 Rx 1 0x301 s 8 10 80 00 04 00 55 00 C1 
14:57:56:5575 Rx 1 0x063 s 8 05 CC 00 00 00 59 1E 59 
14:57:56:5595 Rx 1 0x301 s 8 10 80 00 04 00 55 00 C1 
14:57:56:5615 Rx 1 0x061 s 8 05 CC 00 00 00 06 E6 21 
14:57:56:5695 Rx 1 0x301 s 8 10 80 00 04 00 55 00 C1 
14:57:56:5745 Rx 1 0x063 s 8 05 CC 00 00 00 59 1E 59 
14:57:56:5775 Rx 1 0x061 s 8 05 CC 00 00 00 06 E6 21 
14:57:56:5795 Rx 1 0x301 s 8 10 80 00 04 00 55 00 C1 
14:57:56:5895 Rx 1 0x301 s 8 10 80 00 04 00 55 00 C1 
14:57:56:5905 Rx 1 0x063 s 8 05 CC 00 00 00 E9 00 00 
14:57:56:5945 Rx 1 0x061 s 8 05 CC 00 00 00 06 E6 21 
14:57:56:5995 Rx 1 0x301 s 8 10 80 00 04 00 55 00 C1 
14:57:56:6075 Rx 1 0x063 s 8 05 CC 00 00 00 59 1E 59 
14:57:56:6095 Rx 1 0x301 s 8 10 80 00 04 00 55 00 C1 
14:57:56:6105 Rx 1 0x061 s 8 05 CC 00 00 00 03 80 00 
14:57:56:6195 Rx 1 0x301 s 8 10 80 00 04 00 55 00 C1 
14:57:56:6235 Rx 1 0x063 s 8 05 CC 00 00 00 08 E9 00 
14:57:56:6265 Rx 1 0x061 s 8 05 CC 00 00 00 06 E6 21 
14:57:56:6295 Rx 1 0x301 s 8 10 80 00 04 00 55 00 C1 
14:57:56:6395 Rx 1 0x063 s 8 05 CC 00 00 00 59 1E 59 
14:57:56:6395 Rx 1 0x301 s 8 10 80 00 04 00 55 00 C1 
14:57:56:6435 Rx 1 0x061 s 8 05 CC 00 00 00 06 E6 21 
14:57:56:6505 Rx 1 0x301 s 8 10 80 00 04 00 55 00 C1 
14:57:56:6565 Rx 1 0x063 s 8 05 CC 00 00 00 07 7C 08 
14:57:56:6595 Rx 1 0x061 s 8 05 CC 00 00 00 03 80 03 
14:57:56:6605 Rx 1 0x301 s 8 10 80 00 04 00 55 00 C1 
14:57:56:6705 Rx 1 0x301 s 8 10 80 00 04 00 55 00 C1 
